T0D78 000:000.496   SEGGER J-Link V7.98b Log File
T0D78 000:000.584   DLL Compiled: Jul 31 2024 16:10:46
T0D78 000:000.590   Logging started @ 2024-09-29 06:44
T0D78 000:000.594   Process: C:\Users\nakaj\.eclipse\com.renesas.platform_1435879475\DebugComp\RA\e2-server-gdb.exe
T0D78 000:000.600 - 0.599ms
T0D78 000:000.611 JLINK_GetDLLVersion()
T0D78 000:000.617 - 0.006ms returns 79802
T0D78 000:002.558 JLINK_OpenEx(...)
T0D78 000:027.798   Firmware: J-Link OB-RA4M2 compiled Jul  3 2024 17:03:13
T0D78 000:028.436   Firmware: J-Link OB-RA4M2 compiled Jul  3 2024 17:03:13
T0D78 000:042.462   Hardware: V1.00
T0D78 000:042.524   S/N: 1088381263
T0D78 000:042.552   OEM: SEGGER
T0D78 000:042.580   Feature(s): None
T0D78 000:043.950   Bootloader: 2021 May 14
T0D78 000:044.904   USB speed mode: Full speed (12 MBit/s)
T0D78 000:045.712   TELNET listener socket opened on port 19021
T0D78 000:046.238   WEBSRV WEBSRV_Init(): Starting webserver thread(s)
T0D78 000:046.616   WEBSRV Webserver running on local port 19080
T0D78 000:047.141   Looking for J-Link GUI Server exe at: C:\Users\nakaj\.eclipse\com.renesas.platform_1435879475\DebugComp\RA\ARM\Segger_v7.98.2\JLinkGUIServer.exe
T0D78 000:047.651   Looking for J-Link GUI Server exe at: \JLinkGUIServer.exe
T0D78 000:347.841   Failed to connect to J-Link GUI Server.
T0D78 000:347.864 - 345.299ms returns "O.K."
T0D78 000:347.931 JLINK_TIF_Select(JLINKARM_TIF_SWD)
T0D78 000:348.511 - 0.580ms returns 0x00
T0D78 000:348.526 JLINK_ClrRESET()
T0D78 000:348.720 - 0.194ms
T0D78 000:399.315 JLINK_SetSpeed(1500)
T0D78 000:399.533 - 0.227ms
T0D78 000:399.549 JLINK_CORESIGHT_Configure(PerformTIFInit=0)
T0D78 000:400.103 - 0.553ms returns 0
T0D78 000:400.125 JLINK_CORESIGHT_ReadAPDPReg(DP reg 0x00)
T0D78 000:400.673   Value=0x6BA02477
T0D78 000:400.688 - 0.562ms returns 0
T0D78 000:400.703 JLINK_CORESIGHT_WriteAPDPReg(DP reg 0x00, 0x0000001F)
T0D78 000:401.008 - 0.307ms returns 0
T0D78 000:401.024 JLINK_CORESIGHT_ReadAPDPReg(DP reg 0x00)
T0D78 000:401.315   Value=0x6BA02477
T0D78 000:401.333 - 0.309ms returns 0
T0D78 000:401.343 JLINK_CORESIGHT_WriteAPDPReg(DP reg 0x02, 0x00000000)
T0D78 000:401.652 - 0.308ms returns 0
T0D78 000:401.670 JLINK_CORESIGHT_WriteAPDPReg(DP reg 0x01, 0x50000000)
T0D78 000:401.917 - 0.247ms returns 0
T0D78 000:401.938 JLINK_CORESIGHT_ReadAPDPReg(DP reg 0x01)
T0D78 000:402.139   Value=0xF0000040
T0D78 000:402.153 - 0.214ms returns 0
T0D78 000:402.162 JLINK_CORESIGHT_WriteAPDPReg(DP reg 0x00, 0x0000001F)
T0D78 000:402.431 - 0.268ms returns 0
T0D78 000:402.443 JLINK_CORESIGHT_ReadAPDPReg(DP reg 0x00)
T0D78 000:402.641   Value=0x6BA02477
T0D78 000:402.653 - 0.210ms returns 0
T0D78 000:402.660 JLINK_CORESIGHT_WriteAPDPReg(DP reg 0x01, 0x54000000)
T0D78 000:402.861 - 0.201ms returns 0
T0D78 000:402.874 JLINK_CORESIGHT_WriteAPDPReg(DP reg 0x01, 0x50000F00)
T0D78 000:403.078 - 0.204ms returns 0
T0D78 000:403.091 JLINK_CORESIGHT_WriteAPDPReg(DP reg 0x02, 0x01000000)
T0D78 000:403.293 - 0.202ms returns 0
T0D78 000:403.305 JLINK_CORESIGHT_WriteAPDPReg(AP reg 0x00, 0x80000002)
T0D78 000:403.502 - 0.197ms returns 0
T0D78 000:403.515 JLINK_CORESIGHT_WriteAPDPReg(AP reg 0x01, 0x80011100)
T0D78 000:403.684 - 0.168ms returns 0
T0D78 000:403.692 JLINK_CORESIGHT_WriteAPDPReg(AP reg 0x03, 0x000000A5)
T0D78 000:403.853 - 0.160ms returns 0
T0D78 000:403.862 JLINK_CORESIGHT_WriteAPDPReg(AP reg 0x00, 0x80000002)
T0D78 000:404.020 - 0.158ms returns 0
T0D78 000:404.028 JLINK_CORESIGHT_WriteAPDPReg(AP reg 0x01, 0x80011100)
T0D78 000:404.191 - 0.163ms returns 0
T0D78 000:404.200 JLINK_CORESIGHT_ReadAPDPReg(AP reg 0x03)
T0D78 000:404.412   Value=0x000000A5
T0D78 000:404.420 - 0.220ms returns 0
T0D78 000:404.427 JLINK_ClrTMS()
T0D78 000:404.469 - 0.042ms
T0D78 000:409.490 JLINK_SetTCK()
T0D78 000:409.653 - 0.163ms returns 0
T0D78 000:415.262 JLINK_SetRESET()
T0D78 000:415.452 - 0.190ms
T0D78 000:616.242 JLINK_CORESIGHT_WriteAPDPReg(AP reg 0x00, 0x80000002)
T0D78 000:616.485 - 0.243ms returns 0
T0D78 000:616.499 JLINK_CORESIGHT_WriteAPDPReg(AP reg 0x01, 0x80011100)
T0D78 000:616.782 - 0.283ms returns 0
T0D78 000:616.797 JLINK_CORESIGHT_ReadAPDPReg(AP reg 0x03)
T0D78 000:617.090   Value=0x00000000
T0D78 000:617.102 - 0.305ms returns 0
T0D78 000:617.110 JLINK_CORESIGHT_WriteAPDPReg(AP reg 0x00, 0x80000002)
T0D78 000:617.397 - 0.287ms returns 0
T0D78 000:617.409 JLINK_CORESIGHT_WriteAPDPReg(AP reg 0x01, 0x80011140)
T0D78 000:617.708 - 0.298ms returns 0
T0D78 000:617.721 JLINK_CORESIGHT_ReadAPDPReg(AP reg 0x03)
T0D78 000:618.017   Value=0x00000002
T0D78 000:618.030 - 0.308ms returns 0
T0D78 000:618.037 JLINK_CORESIGHT_WriteAPDPReg(AP reg 0x00, 0x80000002)
T0D78 000:618.287 - 0.249ms returns 0
T0D78 000:618.299 JLINK_CORESIGHT_WriteAPDPReg(AP reg 0x01, 0x80011120)
T0D78 000:618.592 - 0.293ms returns 0
T0D78 000:618.604 JLINK_CORESIGHT_WriteAPDPReg(AP reg 0x03, 0x00000055)
T0D78 000:618.842 - 0.238ms returns 0
T0D78 000:618.855 JLINK_CORESIGHT_WriteAPDPReg(AP reg 0x00, 0x80000002)
T0D78 000:619.091 - 0.235ms returns 0
T0D78 000:619.103 JLINK_CORESIGHT_WriteAPDPReg(AP reg 0x01, 0x80011140)
T0D78 000:619.345 - 0.242ms returns 0
T0D78 000:619.358 JLINK_CORESIGHT_ReadAPDPReg(AP reg 0x03)
T0D78 000:619.672   Value=0x00000000
T0D78 000:619.684 - 0.326ms returns 0
T0D78 000:619.692 JLINK_CORESIGHT_WriteAPDPReg(AP reg 0x00, 0x80000002)
T0D78 000:619.898 - 0.206ms returns 0
T0D78 000:619.907 JLINK_CORESIGHT_WriteAPDPReg(AP reg 0x01, 0x80011130)
T0D78 000:620.108 - 0.201ms returns 0
T0D78 000:620.116 JLINK_CORESIGHT_ReadAPDPReg(AP reg 0x03)
T0D78 000:620.417   Value=0x000000C6
T0D78 000:620.431 - 0.314ms returns 0
T0D78 000:620.442 JLINK_CORESIGHT_WriteAPDPReg(AP reg 0x00, 0x80000002)
T0D78 000:620.706 - 0.263ms returns 0
T0D78 000:620.718 JLINK_CORESIGHT_WriteAPDPReg(AP reg 0x01, 0x80011140)
T0D78 000:620.957 - 0.238ms returns 0
T0D78 000:620.969 JLINK_CORESIGHT_ReadAPDPReg(AP reg 0x03)
T0D78 000:621.260   Value=0x00000002
T0D78 000:621.272 - 0.303ms returns 0
T0D78 000:621.279 JLINK_CORESIGHT_WriteAPDPReg(AP reg 0x00, 0x80000002)
T0D78 000:621.591 - 0.312ms returns 0
T0D78 000:621.604 JLINK_CORESIGHT_WriteAPDPReg(AP reg 0x01, 0x80011120)
T0D78 000:621.888 - 0.284ms returns 0
T0D78 000:621.900 JLINK_CORESIGHT_WriteAPDPReg(AP reg 0x03, 0x3A010001)
T0D78 000:622.165 - 0.264ms returns 0
T0D78 000:622.191 JLINK_CORESIGHT_WriteAPDPReg(AP reg 0x00, 0x80000002)
T0D78 000:622.484 - 0.292ms returns 0
T0D78 000:622.520 JLINK_CORESIGHT_WriteAPDPReg(AP reg 0x01, 0x80011140)
T0D78 000:622.846 - 0.325ms returns 0
T0D78 000:622.859 JLINK_CORESIGHT_ReadAPDPReg(AP reg 0x03)
T0D78 000:623.274   Value=0x00000002
T0D78 000:623.287 - 0.428ms returns 0
T0D78 000:623.295 JLINK_CORESIGHT_WriteAPDPReg(AP reg 0x00, 0x80000002)
T0D78 000:623.610 - 0.315ms returns 0
T0D78 000:623.639 JLINK_CORESIGHT_WriteAPDPReg(AP reg 0x01, 0x80011120)
T0D78 000:623.852 - 0.213ms returns 0
T0D78 000:623.864 JLINK_CORESIGHT_WriteAPDPReg(AP reg 0x03, 0x000003C5)
T0D78 000:624.071 - 0.207ms returns 0
T0D78 000:624.083 JLINK_CORESIGHT_WriteAPDPReg(AP reg 0x00, 0x80000002)
T0D78 000:624.294 - 0.211ms returns 0
T0D78 000:624.318 JLINK_CORESIGHT_WriteAPDPReg(AP reg 0x01, 0x80011140)
T0D78 000:624.563 - 0.245ms returns 0
T0D78 000:624.573 JLINK_CORESIGHT_ReadAPDPReg(AP reg 0x03)
T0D78 000:624.840   Value=0x00000002
T0D78 000:624.849 - 0.275ms returns 0
T0D78 000:624.855 JLINK_CORESIGHT_ReadAPDPReg(AP reg 0x03)
T0D78 000:625.116   Value=0x00000002
T0D78 000:625.124 - 0.269ms returns 0
T0D78 000:625.130 JLINK_CORESIGHT_ReadAPDPReg(AP reg 0x03)
T0D78 000:625.388   Value=0x00000002
T0D78 000:625.397 - 0.266ms returns 0
T0D78 000:625.403 JLINK_CORESIGHT_ReadAPDPReg(AP reg 0x03)
T0D78 000:625.716   Value=0x00000002
T0D78 000:625.724 - 0.321ms returns 0
T0D78 000:625.730 JLINK_CORESIGHT_ReadAPDPReg(AP reg 0x03)
T0D78 000:625.991   Value=0x00000002
T0D78 000:626.000 - 0.269ms returns 0
T0D78 000:626.006 JLINK_CORESIGHT_ReadAPDPReg(AP reg 0x03)
T0D78 000:626.262   Value=0x00000000
T0D78 000:626.271 - 0.265ms returns 0
T0D78 000:626.277 JLINK_CORESIGHT_WriteAPDPReg(AP reg 0x00, 0x80000002)
T0D78 000:626.559 - 0.282ms returns 0
T0D78 000:626.572 JLINK_CORESIGHT_WriteAPDPReg(AP reg 0x01, 0x80011130)
T0D78 000:626.797 - 0.225ms returns 0
T0D78 000:626.805 JLINK_CORESIGHT_ReadAPDPReg(AP reg 0x03)
T0D78 000:627.062   Value=0x3A2A0081
T0D78 000:627.070 - 0.265ms returns 0
T0D78 000:627.076 JLINK_CORESIGHT_WriteAPDPReg(AP reg 0x00, 0x80000002)
T0D78 000:627.287 - 0.210ms returns 0
T0D78 000:627.296 JLINK_CORESIGHT_WriteAPDPReg(AP reg 0x01, 0x80011140)
T0D78 000:627.557 - 0.261ms returns 0
T0D78 000:627.565 JLINK_CORESIGHT_ReadAPDPReg(AP reg 0x03)
T0D78 000:627.836   Value=0x00000000
T0D78 000:627.846 - 0.280ms returns 0
T0D78 000:627.853 JLINK_CORESIGHT_WriteAPDPReg(AP reg 0x00, 0x80000002)
T0D78 000:628.061 - 0.208ms returns 0
T0D78 000:628.071 JLINK_CORESIGHT_WriteAPDPReg(AP reg 0x01, 0x80011130)
T0D78 000:628.279 - 0.207ms returns 0
T0D78 000:628.287 JLINK_CORESIGHT_ReadAPDPReg(AP reg 0x03)
T0D78 000:628.555   Value=0x808D5B00
T0D78 000:628.563 - 0.275ms returns 0
T0D78 000:628.569 JLINK_CORESIGHT_WriteAPDPReg(AP reg 0x00, 0x80000002)
T0D78 000:628.810 - 0.240ms returns 0
T0D78 000:628.820 JLINK_CORESIGHT_WriteAPDPReg(AP reg 0x01, 0x80011140)
T0D78 000:629.056 - 0.236ms returns 0
T0D78 000:629.069 JLINK_CORESIGHT_ReadAPDPReg(AP reg 0x03)
T0D78 000:629.308   Value=0x00000000
T0D78 000:629.320 - 0.250ms returns 0
T0D78 000:629.327 JLINK_CORESIGHT_WriteAPDPReg(AP reg 0x00, 0x80000002)
T0D78 000:629.592 - 0.264ms returns 0
T0D78 000:629.604 JLINK_CORESIGHT_WriteAPDPReg(AP reg 0x01, 0x80011130)
T0D78 000:629.774 - 0.169ms returns 0
T0D78 000:629.805 JLINK_CORESIGHT_ReadAPDPReg(AP reg 0x03)
T0D78 000:630.147   Value=0x0603030B
T0D78 000:630.159 - 0.354ms returns 0
T0D78 000:630.167 JLINK_CORESIGHT_WriteAPDPReg(AP reg 0x00, 0x80000002)
T0D78 000:630.444 - 0.276ms returns 0
T0D78 000:630.478 JLINK_CORESIGHT_WriteAPDPReg(AP reg 0x01, 0x80011140)
T0D78 000:630.816 - 0.337ms returns 0
T0D78 000:630.845 JLINK_CORESIGHT_ReadAPDPReg(AP reg 0x03)
T0D78 000:631.165   Value=0x00000000
T0D78 000:631.192 - 0.346ms returns 0
T0D78 000:631.209 JLINK_CORESIGHT_WriteAPDPReg(AP reg 0x00, 0x80000002)
T0D78 000:631.516 - 0.306ms returns 0
T0D78 000:631.545 JLINK_CORESIGHT_WriteAPDPReg(AP reg 0x01, 0x80011130)
T0D78 000:631.820 - 0.275ms returns 0
T0D78 000:631.850 JLINK_CORESIGHT_ReadAPDPReg(AP reg 0x03)
T0D78 000:632.138   Value=0x2E4B4E20
T0D78 000:632.150 - 0.300ms returns 0
T0D78 000:632.161 JLINK_CORESIGHT_WriteAPDPReg(AP reg 0x00, 0x80000002)
T0D78 000:632.344 - 0.183ms returns 0
T0D78 000:632.359 JLINK_CORESIGHT_WriteAPDPReg(AP reg 0x01, 0x80011140)
T0D78 000:632.604 - 0.245ms returns 0
T0D78 000:632.619 JLINK_CORESIGHT_ReadAPDPReg(AP reg 0x03)
T0D78 000:632.875   Value=0x00000000
T0D78 000:632.887 - 0.267ms returns 0
T0D78 000:632.896 JLINK_CORESIGHT_WriteAPDPReg(AP reg 0x00, 0x80000002)
T0D78 000:633.102 - 0.205ms returns 0
T0D78 000:633.117 JLINK_CORESIGHT_WriteAPDPReg(AP reg 0x01, 0x80011130)
T0D78 000:633.324 - 0.207ms returns 0
T0D78 000:633.339 JLINK_CORESIGHT_ReadAPDPReg(AP reg 0x03)
T0D78 000:633.591   Value=0x4E83AA92
T0D78 000:633.603 - 0.263ms returns 0
T0D78 000:633.613 JLINK_CORESIGHT_WriteAPDPReg(AP reg 0x00, 0x80000002)
T0D78 000:633.815 - 0.202ms returns 0
T0D78 000:633.830 JLINK_CORESIGHT_WriteAPDPReg(AP reg 0x01, 0x80011140)
T0D78 000:634.035 - 0.204ms returns 0
T0D78 000:634.050 JLINK_CORESIGHT_ReadAPDPReg(AP reg 0x03)
T0D78 000:634.305   Value=0x00000000
T0D78 000:634.316 - 0.266ms returns 0
T0D78 000:634.327 JLINK_CORESIGHT_WriteAPDPReg(AP reg 0x00, 0x80000002)
T0D78 000:634.593 - 0.266ms returns 0
T0D78 000:634.609 JLINK_CORESIGHT_WriteAPDPReg(AP reg 0x01, 0x80011130)
T0D78 000:634.807 - 0.198ms returns 0
T0D78 000:634.822 JLINK_CORESIGHT_ReadAPDPReg(AP reg 0x03)
T0D78 000:635.075   Value=0x34503036
T0D78 000:635.087 - 0.265ms returns 0
T0D78 000:635.097 JLINK_CORESIGHT_WriteAPDPReg(AP reg 0x00, 0x80000002)
T0D78 000:635.314 - 0.216ms returns 0
T0D78 000:635.329 JLINK_CORESIGHT_WriteAPDPReg(AP reg 0x01, 0x80011140)
T0D78 000:635.591 - 0.262ms returns 0
T0D78 000:635.608 JLINK_CORESIGHT_ReadAPDPReg(AP reg 0x03)
T0D78 000:635.868   Value=0x00000000
T0D78 000:635.880 - 0.271ms returns 0
T0D78 000:635.890 JLINK_CORESIGHT_WriteAPDPReg(AP reg 0x00, 0x80000002)
T0D78 000:636.100 - 0.209ms returns 0
T0D78 000:636.115 JLINK_CORESIGHT_WriteAPDPReg(AP reg 0x01, 0x80011130)
T0D78 000:636.323 - 0.207ms returns 0
T0D78 000:636.338 JLINK_CORESIGHT_ReadAPDPReg(AP reg 0x03)
T0D78 000:636.592   Value=0x74142D36
T0D78 000:636.604 - 0.266ms returns 0
T0D78 000:636.615 JLINK_CORESIGHT_WriteAPDPReg(AP reg 0x00, 0x80000002)
T0D78 000:636.788 - 0.173ms returns 0
T0D78 000:636.800 JLINK_CORESIGHT_WriteAPDPReg(AP reg 0x01, 0x80011140)
T0D78 000:637.000 - 0.200ms returns 0
T0D78 000:637.016 JLINK_CORESIGHT_ReadAPDPReg(AP reg 0x03)
T0D78 000:637.266   Value=0x00000000
T0D78 000:637.279 - 0.263ms returns 0
T0D78 000:637.290 JLINK_CORESIGHT_WriteAPDPReg(AP reg 0x00, 0x80000002)
T0D78 000:637.590 - 0.300ms returns 0
T0D78 000:637.606 JLINK_CORESIGHT_WriteAPDPReg(AP reg 0x01, 0x80011130)
T0D78 000:637.805 - 0.199ms returns 0
T0D78 000:637.820 JLINK_CORESIGHT_ReadAPDPReg(AP reg 0x03)
T0D78 000:638.056   Value=0x46375267
T0D78 000:638.100 - 0.279ms returns 0
T0D78 000:638.110 JLINK_CORESIGHT_WriteAPDPReg(AP reg 0x00, 0x80000002)
T0D78 000:638.354 - 0.244ms returns 0
T0D78 000:638.387 JLINK_CORESIGHT_WriteAPDPReg(AP reg 0x01, 0x80011140)
T0D78 000:638.645 - 0.258ms returns 0
T0D78 000:638.662 JLINK_CORESIGHT_ReadAPDPReg(AP reg 0x03)
T0D78 000:638.957   Value=0x00000000
T0D78 000:638.969 - 0.307ms returns 0
T0D78 000:638.980 JLINK_CORESIGHT_WriteAPDPReg(AP reg 0x00, 0x80000002)
T0D78 000:639.159 - 0.179ms returns 0
T0D78 000:639.172 JLINK_CORESIGHT_WriteAPDPReg(AP reg 0x01, 0x80011130)
T0D78 000:639.346 - 0.174ms returns 0
T0D78 000:639.357 JLINK_CORESIGHT_ReadAPDPReg(AP reg 0x03)
T0D78 000:639.588   Value=0x314D3841
T0D78 000:639.598 - 0.240ms returns 0
T0D78 000:639.606 JLINK_CORESIGHT_WriteAPDPReg(AP reg 0x00, 0x80000002)
T0D78 000:639.774 - 0.168ms returns 0
T0D78 000:639.784 JLINK_CORESIGHT_WriteAPDPReg(AP reg 0x01, 0x80011140)
T0D78 000:639.950 - 0.166ms returns 0
T0D78 000:639.960 JLINK_CORESIGHT_ReadAPDPReg(AP reg 0x03)
T0D78 000:640.208   Value=0x00000000
T0D78 000:640.221 - 0.260ms returns 0
T0D78 000:640.231 JLINK_CORESIGHT_WriteAPDPReg(AP reg 0x00, 0x80000002)
T0D78 000:640.447 - 0.215ms returns 0
T0D78 000:640.462 JLINK_CORESIGHT_WriteAPDPReg(AP reg 0x01, 0x80011130)
T0D78 000:640.698 - 0.235ms returns 0
T0D78 000:640.712 JLINK_CORESIGHT_ReadAPDPReg(AP reg 0x03)
T0D78 000:640.969   Value=0x43454841
T0D78 000:640.978 - 0.266ms returns 0
T0D78 000:640.986 JLINK_CORESIGHT_WriteAPDPReg(AP reg 0x00, 0x80000002)
T0D78 000:641.155 - 0.169ms returns 0
T0D78 000:641.165 JLINK_CORESIGHT_WriteAPDPReg(AP reg 0x01, 0x80011140)
T0D78 000:641.331 - 0.166ms returns 0
T0D78 000:641.343 JLINK_CORESIGHT_ReadAPDPReg(AP reg 0x03)
T0D78 000:641.584   Value=0x00000000
T0D78 000:641.592 - 0.249ms returns 0
T0D78 000:641.600 JLINK_CORESIGHT_WriteAPDPReg(AP reg 0x00, 0x80000002)
T0D78 000:641.767 - 0.166ms returns 0
T0D78 000:641.776 JLINK_CORESIGHT_WriteAPDPReg(AP reg 0x01, 0x80011130)
T0D78 000:641.972 - 0.196ms returns 0
T0D78 000:641.982 JLINK_CORESIGHT_ReadAPDPReg(AP reg 0x03)
T0D78 000:642.205   Value=0x20204442
T0D78 000:642.213 - 0.231ms returns 0
T0D78 000:642.221 JLINK_CORESIGHT_WriteAPDPReg(AP reg 0x00, 0x80000002)
T0D78 000:642.389 - 0.167ms returns 0
T0D78 000:642.400 JLINK_CORESIGHT_WriteAPDPReg(AP reg 0x01, 0x80011140)
T0D78 000:642.609 - 0.209ms returns 0
T0D78 000:642.618 JLINK_CORESIGHT_ReadAPDPReg(AP reg 0x03)
T0D78 000:642.837   Value=0x00000000
T0D78 000:642.845 - 0.227ms returns 0
T0D78 000:642.853 JLINK_CORESIGHT_WriteAPDPReg(AP reg 0x00, 0x80000002)
T0D78 000:643.041 - 0.187ms returns 0
T0D78 000:643.051 JLINK_CORESIGHT_WriteAPDPReg(AP reg 0x01, 0x80011130)
T0D78 000:643.218 - 0.167ms returns 0
T0D78 000:643.229 JLINK_CORESIGHT_ReadAPDPReg(AP reg 0x03)
T0D78 000:643.589   Value=0x00033020
T0D78 000:643.604 - 0.375ms returns 0
T0D78 000:644.097 JLINK_CORESIGHT_WriteAPDPReg(AP reg 0x00, 0x80000002)
T0D78 000:644.302 - 0.204ms returns 0
T0D78 000:644.314 JLINK_CORESIGHT_WriteAPDPReg(AP reg 0x01, 0x80011140)
T0D78 000:644.560 - 0.245ms returns 0
T0D78 000:644.572 JLINK_CORESIGHT_ReadAPDPReg(AP reg 0x03)
T0D78 000:644.805   Value=0x00000002
T0D78 000:644.814 - 0.242ms returns 0
T0D78 000:644.821 JLINK_CORESIGHT_WriteAPDPReg(AP reg 0x00, 0x80000002)
T0D78 000:644.999 - 0.177ms returns 0
T0D78 000:645.011 JLINK_CORESIGHT_WriteAPDPReg(AP reg 0x01, 0x80011120)
T0D78 000:645.250 - 0.238ms returns 0
T0D78 000:645.259 JLINK_CORESIGHT_WriteAPDPReg(AP reg 0x03, 0x2C010001)
T0D78 000:645.472 - 0.213ms returns 0
T0D78 000:645.484 JLINK_CORESIGHT_WriteAPDPReg(AP reg 0x00, 0x80000002)
T0D78 000:645.670 - 0.186ms returns 0
T0D78 000:645.679 JLINK_CORESIGHT_WriteAPDPReg(AP reg 0x01, 0x80011140)
T0D78 000:645.858 - 0.178ms returns 0
T0D78 000:645.868 JLINK_CORESIGHT_ReadAPDPReg(AP reg 0x03)
T0D78 000:646.087   Value=0x00000002
T0D78 000:646.096 - 0.227ms returns 0
T0D78 000:646.102 JLINK_CORESIGHT_WriteAPDPReg(AP reg 0x00, 0x80000002)
T0D78 000:646.268 - 0.165ms returns 0
T0D78 000:646.276 JLINK_CORESIGHT_WriteAPDPReg(AP reg 0x01, 0x80011120)
T0D78 000:646.444 - 0.167ms returns 0
T0D78 000:646.457 JLINK_CORESIGHT_WriteAPDPReg(AP reg 0x03, 0x000003D3)
T0D78 000:646.692 - 0.235ms returns 0
T0D78 000:646.705 JLINK_CORESIGHT_WriteAPDPReg(AP reg 0x00, 0x80000002)
T0D78 000:646.913 - 0.208ms returns 0
T0D78 000:646.921 JLINK_CORESIGHT_WriteAPDPReg(AP reg 0x01, 0x80011140)
T0D78 000:647.134 - 0.212ms returns 0
T0D78 000:647.144 JLINK_CORESIGHT_ReadAPDPReg(AP reg 0x03)
T0D78 000:647.367   Value=0x00000002
T0D78 000:647.375 - 0.231ms returns 0
T0D78 000:647.381 JLINK_CORESIGHT_ReadAPDPReg(AP reg 0x03)
T0D78 000:647.607   Value=0x00000002
T0D78 000:647.615 - 0.233ms returns 0
T0D78 000:647.621 JLINK_CORESIGHT_ReadAPDPReg(AP reg 0x03)
T0D78 000:647.838   Value=0x00000002
T0D78 000:647.847 - 0.226ms returns 0
T0D78 000:647.853 JLINK_CORESIGHT_ReadAPDPReg(AP reg 0x03)
T0D78 000:648.072   Value=0x00000002
T0D78 000:648.082 - 0.228ms returns 0
T0D78 000:648.088 JLINK_CORESIGHT_ReadAPDPReg(AP reg 0x03)
T0D78 000:648.308   Value=0x00000002
T0D78 000:648.317 - 0.228ms returns 0
T0D78 000:648.323 JLINK_CORESIGHT_ReadAPDPReg(AP reg 0x03)
T0D78 000:648.556   Value=0x00000002
T0D78 000:648.564 - 0.241ms returns 0
T0D78 000:648.570 JLINK_CORESIGHT_ReadAPDPReg(AP reg 0x03)
T0D78 000:648.790   Value=0x00000002
T0D78 000:648.799 - 0.228ms returns 0
T0D78 000:648.805 JLINK_CORESIGHT_ReadAPDPReg(AP reg 0x03)
T0D78 000:649.029   Value=0x00000002
T0D78 000:649.039 - 0.233ms returns 0
T0D78 000:649.045 JLINK_CORESIGHT_ReadAPDPReg(AP reg 0x03)
T0D78 000:649.263   Value=0x00000002
T0D78 000:649.272 - 0.227ms returns 0
T0D78 000:649.278 JLINK_CORESIGHT_ReadAPDPReg(AP reg 0x03)
T0D78 000:649.555   Value=0x00000002
T0D78 000:649.564 - 0.286ms returns 0
T0D78 000:649.570 JLINK_CORESIGHT_ReadAPDPReg(AP reg 0x03)
T0D78 000:649.789   Value=0x00000002
T0D78 000:649.798 - 0.228ms returns 0
T0D78 000:649.804 JLINK_CORESIGHT_ReadAPDPReg(AP reg 0x03)
T0D78 000:650.023   Value=0x00000002
T0D78 000:650.032 - 0.228ms returns 0
T0D78 000:650.039 JLINK_CORESIGHT_ReadAPDPReg(AP reg 0x03)
T0D78 000:650.258   Value=0x00000000
T0D78 000:650.266 - 0.227ms returns 0
T0D78 000:650.272 JLINK_CORESIGHT_WriteAPDPReg(AP reg 0x00, 0x80000002)
T0D78 000:650.438 - 0.166ms returns 0
T0D78 000:650.447 JLINK_CORESIGHT_WriteAPDPReg(AP reg 0x01, 0x80011130)
T0D78 000:650.667 - 0.220ms returns 0
T0D78 000:650.676 JLINK_CORESIGHT_ReadAPDPReg(AP reg 0x03)
T0D78 000:650.898   Value=0x2C020081
T0D78 000:650.908 - 0.231ms returns 0
T0D78 000:650.914 JLINK_CORESIGHT_WriteAPDPReg(AP reg 0x00, 0x80000002)
T0D78 000:651.099 - 0.184ms returns 0
T0D78 000:651.107 JLINK_CORESIGHT_WriteAPDPReg(AP reg 0x01, 0x80011140)
T0D78 000:651.270 - 0.163ms returns 0
T0D78 000:651.278 JLINK_CORESIGHT_ReadAPDPReg(AP reg 0x03)
T0D78 000:651.556   Value=0x00000000
T0D78 000:651.568 - 0.289ms returns 0
T0D78 000:651.574 JLINK_CORESIGHT_WriteAPDPReg(AP reg 0x00, 0x80000002)
T0D78 000:651.742 - 0.167ms returns 0
T0D78 000:651.750 JLINK_CORESIGHT_WriteAPDPReg(AP reg 0x01, 0x80011130)
T0D78 000:651.915 - 0.165ms returns 0
T0D78 000:651.923 JLINK_CORESIGHT_ReadAPDPReg(AP reg 0x03)
T0D78 000:652.140   Value=0x0003CE04
T0D78 000:652.149 - 0.226ms returns 0
T0D78 000:652.159 JLINK_CORESIGHT_WriteAPDPReg(AP reg 0x00, 0x80000002)
T0D78 000:652.329 - 0.170ms returns 0
T0D78 000:652.337 JLINK_CORESIGHT_WriteAPDPReg(AP reg 0x01, 0x80011140)
T0D78 000:652.556 - 0.218ms returns 0
T0D78 000:652.564 JLINK_CORESIGHT_ReadAPDPReg(AP reg 0x03)
T0D78 000:652.784   Value=0x00000002
T0D78 000:652.794 - 0.229ms returns 0
T0D78 000:652.800 JLINK_CORESIGHT_WriteAPDPReg(AP reg 0x00, 0x80000002)
T0D78 000:652.970 - 0.170ms returns 0
T0D78 000:652.980 JLINK_CORESIGHT_WriteAPDPReg(AP reg 0x01, 0x80011120)
T0D78 000:653.148 - 0.168ms returns 0
T0D78 000:653.157 JLINK_CORESIGHT_WriteAPDPReg(AP reg 0x03, 0x73010001)
T0D78 000:653.323 - 0.166ms returns 0
T0D78 000:653.331 JLINK_CORESIGHT_WriteAPDPReg(AP reg 0x00, 0x80000002)
T0D78 000:653.556 - 0.224ms returns 0
T0D78 000:653.564 JLINK_CORESIGHT_WriteAPDPReg(AP reg 0x01, 0x80011140)
T0D78 000:653.731 - 0.166ms returns 0
T0D78 000:653.739 JLINK_CORESIGHT_ReadAPDPReg(AP reg 0x03)
T0D78 000:653.957   Value=0x00000002
T0D78 000:653.965 - 0.225ms returns 0
T0D78 000:653.971 JLINK_CORESIGHT_WriteAPDPReg(AP reg 0x00, 0x80000002)
T0D78 000:654.136 - 0.164ms returns 0
T0D78 000:654.145 JLINK_CORESIGHT_WriteAPDPReg(AP reg 0x01, 0x80011120)
T0D78 000:654.315 - 0.169ms returns 0
T0D78 000:654.323 JLINK_CORESIGHT_WriteAPDPReg(AP reg 0x03, 0x0000038C)
T0D78 000:654.556 - 0.232ms returns 0
T0D78 000:654.564 JLINK_CORESIGHT_WriteAPDPReg(AP reg 0x00, 0x80000002)
T0D78 000:654.750 - 0.186ms returns 0
T0D78 000:654.760 JLINK_CORESIGHT_WriteAPDPReg(AP reg 0x01, 0x80011140)
T0D78 000:654.988 - 0.227ms returns 0
T0D78 000:654.996 JLINK_CORESIGHT_ReadAPDPReg(AP reg 0x03)
T0D78 000:655.211   Value=0x00000002
T0D78 000:655.221 - 0.225ms returns 0
T0D78 000:655.228 JLINK_CORESIGHT_ReadAPDPReg(AP reg 0x03)
T0D78 000:655.453   Value=0x00000002
T0D78 000:655.462 - 0.234ms returns 0
T0D78 000:655.468 JLINK_CORESIGHT_ReadAPDPReg(AP reg 0x03)
T0D78 000:655.720   Value=0x00000002
T0D78 000:655.729 - 0.260ms returns 0
T0D78 000:655.735 JLINK_CORESIGHT_ReadAPDPReg(AP reg 0x03)
T0D78 000:655.955   Value=0x00000002
T0D78 000:655.964 - 0.229ms returns 0
T0D78 000:655.970 JLINK_CORESIGHT_ReadAPDPReg(AP reg 0x03)
T0D78 000:656.231   Value=0x00000002
T0D78 000:656.240 - 0.270ms returns 0
T0D78 000:656.247 JLINK_CORESIGHT_ReadAPDPReg(AP reg 0x03)
T0D78 000:656.556   Value=0x00000002
T0D78 000:656.564 - 0.318ms returns 0
T0D78 000:656.571 JLINK_CORESIGHT_ReadAPDPReg(AP reg 0x03)
T0D78 000:656.840   Value=0x00000002
T0D78 000:656.854 - 0.283ms returns 0
T0D78 000:656.862 JLINK_CORESIGHT_ReadAPDPReg(AP reg 0x03)
T0D78 000:657.117   Value=0x00000002
T0D78 000:657.129 - 0.267ms returns 0
T0D78 000:657.136 JLINK_CORESIGHT_ReadAPDPReg(AP reg 0x03)
T0D78 000:657.387   Value=0x00000002
T0D78 000:657.399 - 0.262ms returns 0
T0D78 000:657.406 JLINK_CORESIGHT_ReadAPDPReg(AP reg 0x03)
T0D78 000:657.645   Value=0x00000000
T0D78 000:657.657 - 0.251ms returns 0
T0D78 000:657.665 JLINK_CORESIGHT_WriteAPDPReg(AP reg 0x00, 0x80000002)
T0D78 000:657.874 - 0.208ms returns 0
T0D78 000:657.886 JLINK_CORESIGHT_WriteAPDPReg(AP reg 0x01, 0x80011130)
T0D78 000:658.056 - 0.169ms returns 0
T0D78 000:658.065 JLINK_CORESIGHT_ReadAPDPReg(AP reg 0x03)
T0D78 000:658.334   Value=0x73020081
T0D78 000:658.345 - 0.279ms returns 0
T0D78 000:658.351 JLINK_CORESIGHT_WriteAPDPReg(AP reg 0x00, 0x80000002)
T0D78 000:658.653 - 0.301ms returns 0
T0D78 000:658.665 JLINK_CORESIGHT_WriteAPDPReg(AP reg 0x01, 0x80011140)
T0D78 000:658.890 - 0.224ms returns 0
T0D78 000:658.903 JLINK_CORESIGHT_ReadAPDPReg(AP reg 0x03)
T0D78 000:659.235   Value=0x00000000
T0D78 000:659.250 - 0.347ms returns 0
T0D78 000:659.257 JLINK_CORESIGHT_WriteAPDPReg(AP reg 0x00, 0x80000002)
T0D78 000:659.466 - 0.208ms returns 0
T0D78 000:659.479 JLINK_CORESIGHT_WriteAPDPReg(AP reg 0x01, 0x80011130)
T0D78 000:659.704 - 0.224ms returns 0
T0D78 000:659.716 JLINK_CORESIGHT_ReadAPDPReg(AP reg 0x03)
T0D78 000:660.021   Value=0x00038902
T0D78 000:660.034 - 0.317ms returns 0
T0D78 000:660.043 JLINK_CORESIGHT_WriteAPDPReg(AP reg 0x00, 0x80000002)
T0D78 000:660.253 - 0.210ms returns 0
T0D78 000:660.266 JLINK_CORESIGHT_WriteAPDPReg(AP reg 0x01, 0x80011140)
T0D78 000:660.473 - 0.206ms returns 0
T0D78 000:660.485 JLINK_CORESIGHT_ReadAPDPReg(AP reg 0x03)
T0D78 000:660.753   Value=0x00000002
T0D78 000:660.765 - 0.279ms returns 0
T0D78 000:660.772 JLINK_CORESIGHT_WriteAPDPReg(AP reg 0x00, 0x80000002)
T0D78 000:660.979 - 0.206ms returns 0
T0D78 000:660.991 JLINK_CORESIGHT_WriteAPDPReg(AP reg 0x01, 0x80011120)
T0D78 000:661.199 - 0.207ms returns 0
T0D78 000:661.211 JLINK_CORESIGHT_WriteAPDPReg(AP reg 0x03, 0x75010001)
T0D78 000:661.416 - 0.204ms returns 0
T0D78 000:661.429 JLINK_CORESIGHT_WriteAPDPReg(AP reg 0x00, 0x80000002)
T0D78 000:661.647 - 0.217ms returns 0
T0D78 000:661.659 JLINK_CORESIGHT_WriteAPDPReg(AP reg 0x01, 0x80011140)
T0D78 000:661.867 - 0.207ms returns 0
T0D78 000:661.880 JLINK_CORESIGHT_ReadAPDPReg(AP reg 0x03)
T0D78 000:662.135   Value=0x00000002
T0D78 000:662.147 - 0.267ms returns 0
T0D78 000:662.155 JLINK_CORESIGHT_WriteAPDPReg(AP reg 0x00, 0x80000002)
T0D78 000:662.359 - 0.204ms returns 0
T0D78 000:662.371 JLINK_CORESIGHT_WriteAPDPReg(AP reg 0x01, 0x80011120)
T0D78 000:662.595 - 0.223ms returns 0
T0D78 000:662.608 JLINK_CORESIGHT_WriteAPDPReg(AP reg 0x03, 0x0000038A)
T0D78 000:662.810 - 0.202ms returns 0
T0D78 000:662.823 JLINK_CORESIGHT_WriteAPDPReg(AP reg 0x00, 0x80000002)
T0D78 000:663.021 - 0.198ms returns 0
T0D78 000:663.034 JLINK_CORESIGHT_WriteAPDPReg(AP reg 0x01, 0x80011140)
T0D78 000:663.235 - 0.201ms returns 0
T0D78 000:663.248 JLINK_CORESIGHT_ReadAPDPReg(AP reg 0x03)
T0D78 000:663.472   Value=0x00000002
T0D78 000:663.485 - 0.236ms returns 0
T0D78 000:663.492 JLINK_CORESIGHT_ReadAPDPReg(AP reg 0x03)
T0D78 000:663.748   Value=0x00000002
T0D78 000:663.760 - 0.267ms returns 0
T0D78 000:663.767 JLINK_CORESIGHT_ReadAPDPReg(AP reg 0x03)
T0D78 000:664.024   Value=0x00000002
T0D78 000:664.036 - 0.269ms returns 0
T0D78 000:664.044 JLINK_CORESIGHT_ReadAPDPReg(AP reg 0x03)
T0D78 000:664.299   Value=0x00000002
T0D78 000:664.311 - 0.267ms returns 0
T0D78 000:664.319 JLINK_CORESIGHT_ReadAPDPReg(AP reg 0x03)
T0D78 000:664.590   Value=0x00000002
T0D78 000:664.602 - 0.283ms returns 0
T0D78 000:664.610 JLINK_CORESIGHT_ReadAPDPReg(AP reg 0x03)
T0D78 000:664.866   Value=0x00000002
T0D78 000:664.878 - 0.268ms returns 0
T0D78 000:664.885 JLINK_CORESIGHT_ReadAPDPReg(AP reg 0x03)
T0D78 000:665.146   Value=0x00000002
T0D78 000:665.158 - 0.272ms returns 0
T0D78 000:665.165 JLINK_CORESIGHT_ReadAPDPReg(AP reg 0x03)
T0D78 000:665.454   Value=0x00000002
T0D78 000:665.466 - 0.301ms returns 0
T0D78 000:665.473 JLINK_CORESIGHT_ReadAPDPReg(AP reg 0x03)
T0D78 000:665.757   Value=0x00000002
T0D78 000:665.769 - 0.295ms returns 0
T0D78 000:665.776 JLINK_CORESIGHT_ReadAPDPReg(AP reg 0x03)
T0D78 000:666.030   Value=0x00000002
T0D78 000:666.042 - 0.266ms returns 0
T0D78 000:666.050 JLINK_CORESIGHT_ReadAPDPReg(AP reg 0x03)
T0D78 000:666.311   Value=0x00000000
T0D78 000:666.324 - 0.273ms returns 0
T0D78 000:666.331 JLINK_CORESIGHT_WriteAPDPReg(AP reg 0x00, 0x80000002)
T0D78 000:666.593 - 0.261ms returns 0
T0D78 000:666.605 JLINK_CORESIGHT_WriteAPDPReg(AP reg 0x01, 0x80011130)
T0D78 000:666.805 - 0.199ms returns 0
T0D78 000:666.817 JLINK_CORESIGHT_ReadAPDPReg(AP reg 0x03)
T0D78 000:667.084   Value=0x75020081
T0D78 000:667.097 - 0.279ms returns 0
T0D78 000:667.104 JLINK_CORESIGHT_WriteAPDPReg(AP reg 0x00, 0x80000002)
T0D78 000:667.311 - 0.207ms returns 0
T0D78 000:667.324 JLINK_CORESIGHT_WriteAPDPReg(AP reg 0x01, 0x80011140)
T0D78 000:667.592 - 0.267ms returns 0
T0D78 000:667.607 JLINK_CORESIGHT_ReadAPDPReg(AP reg 0x03)
T0D78 000:667.859   Value=0x00000000
T0D78 000:667.871 - 0.264ms returns 0
T0D78 000:667.879 JLINK_CORESIGHT_WriteAPDPReg(AP reg 0x00, 0x80000002)
T0D78 000:668.079 - 0.200ms returns 0
T0D78 000:668.092 JLINK_CORESIGHT_WriteAPDPReg(AP reg 0x01, 0x80011130)
T0D78 000:668.301 - 0.209ms returns 0
T0D78 000:668.314 JLINK_CORESIGHT_ReadAPDPReg(AP reg 0x03)
T0D78 000:668.590   Value=0x00038702
T0D78 000:668.602 - 0.288ms returns 0
T0D78 000:668.613 JLINK_CORESIGHT_WriteAPDPReg(AP reg 0x00, 0x80000002)
T0D78 000:668.815 - 0.201ms returns 0
T0D78 000:668.827 JLINK_CORESIGHT_WriteAPDPReg(AP reg 0x01, 0x80011140)
T0D78 000:669.028 - 0.200ms returns 0
T0D78 000:669.041 JLINK_CORESIGHT_ReadAPDPReg(AP reg 0x03)
T0D78 000:669.293   Value=0x00000002
T0D78 000:669.305 - 0.264ms returns 0
T0D78 000:669.313 JLINK_CORESIGHT_WriteAPDPReg(AP reg 0x00, 0x80000002)
T0D78 000:669.517 - 0.203ms returns 0
T0D78 000:669.529 JLINK_CORESIGHT_WriteAPDPReg(AP reg 0x01, 0x80011120)
T0D78 000:669.776 - 0.247ms returns 0
T0D78 000:669.793 JLINK_CORESIGHT_WriteAPDPReg(AP reg 0x03, 0x4F010001)
T0D78 000:670.045 - 0.251ms returns 0
T0D78 000:670.061 JLINK_CORESIGHT_WriteAPDPReg(AP reg 0x00, 0x80000002)
T0D78 000:670.238 - 0.177ms returns 0
T0D78 000:670.253 JLINK_CORESIGHT_WriteAPDPReg(AP reg 0x01, 0x80011140)
T0D78 000:670.440 - 0.187ms returns 0
T0D78 000:670.466 JLINK_CORESIGHT_ReadAPDPReg(AP reg 0x03)
T0D78 000:670.718   Value=0x00000002
T0D78 000:670.728 - 0.261ms returns 0
T0D78 000:670.736 JLINK_CORESIGHT_WriteAPDPReg(AP reg 0x00, 0x80000002)
T0D78 000:670.906 - 0.170ms returns 0
T0D78 000:670.918 JLINK_CORESIGHT_WriteAPDPReg(AP reg 0x01, 0x80011120)
T0D78 000:671.107 - 0.188ms returns 0
T0D78 000:671.116 JLINK_CORESIGHT_WriteAPDPReg(AP reg 0x03, 0x000003B0)
T0D78 000:671.281 - 0.164ms returns 0
T0D78 000:671.292 JLINK_CORESIGHT_WriteAPDPReg(AP reg 0x00, 0x80000002)
T0D78 000:671.490 - 0.198ms returns 0
T0D78 000:671.506 JLINK_CORESIGHT_WriteAPDPReg(AP reg 0x01, 0x80011140)
T0D78 000:671.683 - 0.176ms returns 0
T0D78 000:671.726 JLINK_CORESIGHT_ReadAPDPReg(AP reg 0x03)
T0D78 000:671.956   Value=0x00000002
T0D78 000:671.966 - 0.240ms returns 0
T0D78 000:671.989 JLINK_CORESIGHT_ReadAPDPReg(AP reg 0x03)
T0D78 000:672.259   Value=0x00000002
T0D78 000:672.268 - 0.279ms returns 0
T0D78 000:672.276 JLINK_CORESIGHT_ReadAPDPReg(AP reg 0x03)
T0D78 000:672.575   Value=0x00000002
T0D78 000:672.584 - 0.307ms returns 0
T0D78 000:672.592 JLINK_CORESIGHT_ReadAPDPReg(AP reg 0x03)
T0D78 000:672.812   Value=0x00000002
T0D78 000:672.820 - 0.228ms returns 0
T0D78 000:672.828 JLINK_CORESIGHT_ReadAPDPReg(AP reg 0x03)
T0D78 000:673.036   Value=0x00000002
T0D78 000:673.045 - 0.216ms returns 0
T0D78 000:673.053 JLINK_CORESIGHT_ReadAPDPReg(AP reg 0x03)
T0D78 000:673.272   Value=0x00000002
T0D78 000:673.281 - 0.227ms returns 0
T0D78 000:673.288 JLINK_CORESIGHT_ReadAPDPReg(AP reg 0x03)
T0D78 000:673.556   Value=0x00000000
T0D78 000:673.564 - 0.275ms returns 0
T0D78 000:673.572 JLINK_CORESIGHT_WriteAPDPReg(AP reg 0x00, 0x80000002)
T0D78 000:673.737 - 0.164ms returns 0
T0D78 000:673.747 JLINK_CORESIGHT_WriteAPDPReg(AP reg 0x01, 0x80011130)
T0D78 000:673.914 - 0.167ms returns 0
T0D78 000:673.926 JLINK_CORESIGHT_ReadAPDPReg(AP reg 0x03)
T0D78 000:674.146   Value=0x4F0B0081
T0D78 000:674.154 - 0.228ms returns 0
T0D78 000:674.162 JLINK_CORESIGHT_WriteAPDPReg(AP reg 0x00, 0x80000002)
T0D78 000:674.329 - 0.167ms returns 0
T0D78 000:674.341 JLINK_CORESIGHT_WriteAPDPReg(AP reg 0x01, 0x80011140)
T0D78 000:674.557 - 0.216ms returns 0
T0D78 000:674.569 JLINK_CORESIGHT_ReadAPDPReg(AP reg 0x03)
T0D78 000:674.825   Value=0x00000000
T0D78 000:674.838 - 0.268ms returns 0
T0D78 000:674.848 JLINK_CORESIGHT_WriteAPDPReg(AP reg 0x00, 0x80000002)
T0D78 000:675.071 - 0.223ms returns 0
T0D78 000:675.082 JLINK_CORESIGHT_WriteAPDPReg(AP reg 0x01, 0x80011130)
T0D78 000:675.262 - 0.180ms returns 0
T0D78 000:675.290 JLINK_CORESIGHT_ReadAPDPReg(AP reg 0x03)
T0D78 000:675.661   Value=0x20000000
T0D78 000:675.671 - 0.381ms returns 0
T0D78 000:675.681 JLINK_CORESIGHT_WriteAPDPReg(AP reg 0x00, 0x80000002)
T0D78 000:675.855 - 0.174ms returns 0
T0D78 000:675.865 JLINK_CORESIGHT_WriteAPDPReg(AP reg 0x01, 0x80011140)
T0D78 000:676.030 - 0.165ms returns 0
T0D78 000:676.040 JLINK_CORESIGHT_ReadAPDPReg(AP reg 0x03)
T0D78 000:676.259   Value=0x00000000
T0D78 000:676.267 - 0.227ms returns 0
T0D78 000:676.276 JLINK_CORESIGHT_WriteAPDPReg(AP reg 0x00, 0x80000002)
T0D78 000:676.445 - 0.169ms returns 0
T0D78 000:676.457 JLINK_CORESIGHT_WriteAPDPReg(AP reg 0x01, 0x80011130)
T0D78 000:676.666 - 0.209ms returns 0
T0D78 000:676.675 JLINK_CORESIGHT_ReadAPDPReg(AP reg 0x03)
T0D78 000:676.893   Value=0x00000000
T0D78 000:676.903 - 0.227ms returns 0
T0D78 000:676.912 JLINK_CORESIGHT_WriteAPDPReg(AP reg 0x00, 0x80000002)
T0D78 000:677.079 - 0.167ms returns 0
T0D78 000:677.088 JLINK_CORESIGHT_WriteAPDPReg(AP reg 0x01, 0x80011140)
T0D78 000:677.254 - 0.165ms returns 0
T0D78 000:677.264 JLINK_CORESIGHT_ReadAPDPReg(AP reg 0x03)
T0D78 000:677.555   Value=0x00000000
T0D78 000:677.563 - 0.299ms returns 0
T0D78 000:677.572 JLINK_CORESIGHT_WriteAPDPReg(AP reg 0x00, 0x80000002)
T0D78 000:677.739 - 0.167ms returns 0
T0D78 000:677.750 JLINK_CORESIGHT_WriteAPDPReg(AP reg 0x01, 0x80011130)
T0D78 000:677.919 - 0.168ms returns 0
T0D78 000:677.930 JLINK_CORESIGHT_ReadAPDPReg(AP reg 0x03)
T0D78 000:678.150   Value=0x03860000
T0D78 000:678.159 - 0.229ms returns 0
T0D78 000:678.469 JLINK_CORESIGHT_ReadAPDPReg(DP reg 0x01)
T0D78 000:678.666   Value=0xF0000F40
T0D78 000:678.674 - 0.205ms returns 0
T0D78 000:678.680 JLINK_CORESIGHT_WriteAPDPReg(DP reg 0x01, 0xA0000F40)
T0D78 000:678.857 - 0.176ms returns 0
T0D78 000:678.866 JLINK_CORESIGHT_ReadAPDPReg(DP reg 0x01)
T0D78 000:679.031   Value=0x00000F40
T0D78 000:679.039 - 0.173ms returns 0
T0D78 000:679.045 JLINK_ClrRESET()
T0D78 000:679.203 - 0.157ms
T0D78 000:782.933 JLINK_Close()
T0D78 000:795.471 - 12.538ms
T0D78 000:795.489   
T0D78 000:795.494   Closed
